"Time / s","Vm3:Measured voltage","Am1:Measured current"
0,28.065432280059163,0
9.9999999999999995e-07,28.065432280059163,0
5.9999999999999993e-06,28.065432280059163,0
1.5999999999999999e-05,28.065432280059163,0
2.6000000000000002e-05,28.065432280059163,0
3.6000000000000001e-05,28.065432280059163,0
4.6e-05,28.065432280059163,0
5.5999999999999999e-05,28.065432280059163,0
6.6000000000000005e-05,28.065432280059163,0
7.6000000000000004e-05,28.065432280059163,0
8.6000000000000003e-05,28.065432280059163,0
9.6000000000000002e-05,28.065432280059163,0
0.000106,28.065432280059163,0
0.000116,28.065432280059163,0
0.000126,28.065432280059163,0
0.000136,28.065432280059163,0
0.000146,28.065432280059163,0
0.000156,28.065432280059163,0
0.000166,28.065432280059163,0
0.000176,28.065432280059163,0
0.00018599999999999999,28.065432280059163,0
0.00019599999999999999,28.065432280059163,0
0.00020599999999999999,28.065432280059163,0
0.00021599999999999999,28.065432280059163,0
0.00022599999999999999,28.065432280059163,0
0.00023599999999999999,28.065432280059163,0
0.00024600000000000002,28.065432280059163,0
0.00025600000000000004,28.065432280059163,0
0.00026600000000000007,28.065432280059163,0
0.0002760000000000001,28.065432280059163,0
0.00028600000000000012,28.065432280059163,0
0.00029600000000000015,28.065432280059163,0
0.00030600000000000017,28.065432280059163,0
0.0003160000000000002,28.065432280059163,0
0.00032600000000000023,28.065432280059163,0
0.00033600000000000025,28.065432280059163,0
0.00034600000000000028,28.065432280059163,0
0.0003560000000000003,28.065432280059163,0
0.00036600000000000033,28.065432280059163,0
0.00037600000000000036,28.065432280059163,0
0.00038600000000000038,28.065432280059163,0
0.00039600000000000041,28.065432280059163,0
0.00040600000000000044,28.065432280059163,0
0.00041600000000000046,28.065432280059163,0
0.00042600000000000049,28.065432280059163,0
0.00043600000000000051,28.065432280059163,0
0.00044600000000000054,28.065432280059163,0
0.00045600000000000057,28.065432280059163,0
0.00046600000000000059,28.065432280059163,0
0.00047600000000000062,28.065432280059163,0
0.00048600000000000065,28.065432280059163,0
0.00049600000000000067,28.065432280059163,0
0.0005060000000000007,28.065432280059163,0
0.00051600000000000072,28.065432280059163,0
0.00052600000000000075,28.065432280059163,0
0.00053600000000000078,28.065432280059163,0
0.0005460000000000008,28.065432280059163,0
0.00055600000000000083,28.065432280059163,0
0.00056600000000000086,28.065432280059163,0
0.00057600000000000088,28.065432280059163,0
0.00058600000000000091,28.065432280059163,0
0.00059600000000000093,28.065432280059163,0
0.00060600000000000096,28.065432280059163,0
0.00061600000000000099,28.065432280059163,0
0.00062600000000000101,28.065432280059163,0
0.00063600000000000104,28.065432280059163,0
0.00064600000000000107,28.065432280059163,0
0.00065600000000000109,28.065432280059163,0
0.00066600000000000112,28.065432280059163,0
0.00067600000000000114,28.065432280059163,0
0.00068600000000000117,28.065432280059163,0
0.0006960000000000012,28.065432280059163,0
0.00070600000000000122,28.065432280059163,0
0.00071600000000000125,28.065432280059163,0
0.00072600000000000128,28.065432280059163,0
0.0007360000000000013,28.065432280059163,0
0.00074600000000000133,28.065432280059163,0
0.00075600000000000135,28.065432280059163,0
0.00076600000000000138,28.065432280059163,0
0.00077600000000000141,28.065432280059163,0
0.00078600000000000143,28.065432280059163,0
0.00079600000000000146,28.065432280059163,0
0.00080600000000000149,28.065432280059163,0
0.00081600000000000151,28.065432280059163,0
0.00082600000000000154,28.065432280059163,0
0.00083600000000000156,28.065432280059163,0
0.00084600000000000159,28.065432280059163,0
0.00085600000000000162,28.065432280059163,0
0.00086600000000000164,28.065432280059163,0
0.00087600000000000167,28.065432280059163,0
0.0008860000000000017,28.065432280059163,0
0.00089600000000000172,28.065432280059163,0
0.00090600000000000175,28.065432280059163,0
0.00091600000000000177,28.065432280059163,0
0.0009260000000000018,28.065432280059163,0
0.00093600000000000183,28.065432280059163,0
0.00094600000000000185,28.065432280059163,0
0.00095600000000000188,28.065432280059163,0
0.0009660000000000019,28.065432280059163,0
0.00097600000000000193,28.065432280059163,0
0.00098600000000000185,28.065432280059163,0
0.00099600000000000188,28.065432280059163,0
0.0010060000000000019,28.065432280059163,0
0.0010160000000000019,28.065432280059163,0
0.001026000000000002,28.065432280059163,0
0.001036000000000002,28.065432280059163,0
0.001046000000000002,28.065432280059163,0
0.001056000000000002,28.065432280059163,0
0.0010660000000000021,28.065432280059163,0
0.0010760000000000021,28.065432280059163,0
0.0010860000000000021,28.065432280059163,0
0.0010960000000000021,28.065432280059163,0
0.0011060000000000022,28.065432280059163,0
0.0011160000000000022,28.065432280059163,0
0.0011260000000000022,28.065432280059163,0
0.0011360000000000022,28.065432280059163,0
0.0011460000000000023,28.065432280059163,0
0.0011560000000000023,28.065432280059163,0
0.0011660000000000023,28.065432280059163,0
0.0011760000000000023,28.065432280059163,0
0.0011860000000000024,28.065432280059163,0
0.0011960000000000024,28.065432280059163,0
0.0012060000000000024,28.065432280059163,0
0.0012160000000000025,28.065432280059163,0
0.0012260000000000025,28.065432280059163,0
0.0012360000000000025,28.065432280059163,0
0.0012460000000000025,28.065432280059163,0
0.0012560000000000026,28.065432280059163,0
0.0012660000000000026,28.065432280059163,0
0.0012760000000000026,28.065432280059163,0
0.0012860000000000026,28.065432280059163,0
0.0012960000000000027,28.065432280059163,0
0.0013060000000000027,28.065432280059163,0
0.0013160000000000027,28.065432280059163,0
0.0013260000000000027,28.065432280059163,0
0.0013360000000000028,28.065432280059163,0
0.0013460000000000028,28.065432280059163,0
0.0013560000000000028,28.065432280059163,0
0.0013660000000000028,28.065432280059163,0
0.0013760000000000029,28.065432280059163,0
0.0013860000000000029,28.065432280059163,0
0.0013960000000000029,28.065432280059163,0
0.001406000000000003,28.065432280059163,0
0.001416000000000003,28.065432280059163,0
0.001426000000000003,28.065432280059163,0
0.001436000000000003,28.065432280059163,0
0.0014460000000000031,28.065432280059163,0
0.0014560000000000031,28.065432280059163,0
0.0014660000000000031,28.065432280059163,0
0.0014760000000000031,28.065432280059163,0
0.0014860000000000032,28.065432280059163,0
0.0014960000000000032,28.065432280059163,0
0.0015060000000000032,28.065432280059163,0
0.0015160000000000032,28.065432280059163,0
0.0015260000000000033,28.065432280059163,0
0.0015360000000000033,28.065432280059163,0
0.0015460000000000033,28.065432280059163,0
0.0015560000000000033,28.065432280059163,0
0.0015660000000000034,28.065432280059163,0
0.0015760000000000034,28.065432280059163,0
0.0015860000000000034,28.065432280059163,0
0.0015960000000000034,28.065432280059163,0
0.0016060000000000035,28.065432280059163,0
0.0016160000000000035,28.065432280059163,0
0.0016260000000000035,28.065432280059163,0
0.0016360000000000036,28.065432280059163,0
0.0016460000000000036,28.065432280059163,0
0.0016560000000000036,28.065432280059163,0
0.0016660000000000036,28.065432280059163,0
0.001666666666666618,28.065432280059163,0
0.0016666666666666653,28.065432280059163,0
0.0016766666666666653,28.065432280059163,0
0.0016866666666666653,28.065432280059163,0
0.0016966666666666653,28.065432280059163,0
0.0017066666666666654,28.065432280059163,0
0.0017166666666666654,28.065432280059163,0
0.0017266666666666654,28.065432280059163,0
0.0017366666666666654,28.065432280059163,0
0.0017466666666666655,28.065432280059163,0
0.0017566666666666655,28.065432280059163,0
0.0017666666666666655,28.065432280059163,0
0.0017766666666666655,28.065432280059163,0
0.0017866666666666656,28.065432280059163,0
0.0017966666666666656,28.065432280059163,0
0.0018066666666666656,28.065432280059163,0
0.0018166666666666656,28.065432280059163,0
0.0018266666666666657,28.065432280059163,0
0.0018366666666666657,28.065432280059163,0
0.0018466666666666657,28.065432280059163,0
0.0018566666666666658,28.065432280059163,0
0.0018666666666666658,28.065432280059163,0
0.0018766666666666658,28.065432280059163,0
0.0018866666666666658,28.065432280059163,0
0.0018966666666666659,28.065432280059163,0
0.0019066666666666659,28.065432280059163,0
0.0019166666666666659,28.065432280059163,0
0.0019266666666666659,28.065432280059163,0
0.001936666666666666,28.065432280059163,0
0.001946666666666666,28.065432280059163,0
0.001956666666666666,28.065432280059163,0
0.001966666666666666,28.065432280059163,0
0.0019766666666666661,28.065432280059163,0
0.0019866666666666661,28.065432280059163,0
0.0019966666666666661,28.065432280059163,0
0.0020066666666666661,28.065432280059163,0
0.0020166666666666662,28.065432280059163,0
0.0020266666666666662,28.065432280059163,0
0.0020366666666666662,28.065432280059163,0
0.0020466666666666663,28.065432280059163,0
0.0020566666666666663,28.065432280059163,0
0.0020666666666666663,28.065432280059163,0
0.0020766666666666663,28.065432280059163,0
0.0020866666666666664,28.065432280059163,0
0.0020966666666666664,28.065432280059163,0
0.0021066666666666664,28.065432280059163,0
0.0021166666666666664,28.065432280059163,0
0.0021266666666666665,28.065432280059163,0
0.0021366666666666665,28.065432280059163,0
0.0021466666666666665,28.065432280059163,0
0.0021566666666666665,28.065432280059163,0
0.0021666666666666666,28.065432280059163,0
0.0021766666666666666,28.065432280059163,0
0.0021866666666666666,28.065432280059163,0
0.0021966666666666666,28.065432280059163,0
0.0022066666666666667,28.065432280059163,0
0.0022166666666666667,28.065432280059163,0
0.0022266666666666667,28.065432280059163,0
0.0022366666666666668,28.065432280059163,0
0.0022466666666666668,28.065432280059163,0
0.0022566666666666668,28.065432280059163,0
0.0022666666666666668,28.065432280059163,0
0.0022766666666666669,28.065432280059163,0
0.0022866666666666669,28.065432280059163,0
0.0022966666666666669,28.065432280059163,0
0.0023066666666666669,28.065432280059163,0
0.002316666666666667,28.065432280059163,0
0.002326666666666667,28.065432280059163,0
0.002336666666666667,28.065432280059163,0
0.002346666666666667,28.065432280059163,0
0.0023566666666666671,28.065432280059163,0
0.0023666666666666671,28.065432280059163,0
0.0023766666666666671,28.065432280059163,0
0.0023866666666666671,28.065432280059163,0
0.0023966666666666672,28.065432280059163,0
0.0024066666666666672,28.065432280059163,0
0.0024166666666666672,28.065432280059163,0
0.0024266666666666672,28.065432280059163,0
0.0024366666666666673,28.065432280059163,0
0.0024466666666666673,28.065432280059163,0
0.0024566666666666673,28.065432280059163,0
0.0024666666666666674,28.065432280059163,0
0.0024766666666666674,28.065432280059163,0
0.0024866666666666674,28.065432280059163,0
0.0024966666666666674,28.065432280059163,0
0.0025066666666666675,28.065432280059163,0
0.0025166666666666675,28.065432280059163,0
0.0025266666666666675,28.065432280059163,0
0.0025366666666666675,28.065432280059163,0
0.0025466666666666676,28.065432280059163,0
0.0025566666666666676,28.065432280059163,0
0.0025568694227978278,28.065432280059163,0
0.0025568694227979007,28.065432280059163,0
0.0025668694227979007,28.066766432222671,0.042045499194240381
0.0025768694227979007,28.070726076260176,0.16623590546782213
0.0025868694227979007,28.077247537905166,0.3696993740901815
0.0025968694227979008,28.086267877768964,0.64962653389927372
0.0026068694227979008,28.097724901728242,1.0032697498992553
0.0026168694227979008,28.11155717029461,1.4279423759885983
0.0026268694227979008,28.127704006978696,1.921017998830794
0.0026368694227979009,28.146105505665684,2.4799296738650338
0.0026468694227979009,28.166702537024012,3.1021691544348418
0.0026568694227979009,28.189436753972092,3.7852861149892814
0.002666869422797901,28.21425059623126,4.5268873692848937
0.002676869422797901,28.241087293995221,5.3246360844870537
0.002686869422797901,28.269890870748682,6.1762509920381232
0.002696869422797901,28.300606145268858,7.079505596126376
0.0027068694227979011,28.333178732845109,8.0322273805552555
0.0027168694227979011,28.367555045752422,9.0322970147770238
0.0027268694227979011,28.403682293015137,10.077647559818764
0.0027368694227979011,28.441508479497372,11.166263674792212
0.0027468694227979012,28.48098240435662,12.296180824642441
0.0027568694227979012,28.522053658896851,13.465484489754038
0.0027668694227979012,28.564672623856868,14.672309377997305
0.0027768694227979012,28.608790466169292,15.914838639761451
0.0027868694227979013,28.654359135224809,17.191303086486791
0.0027968694227979013,28.70133135867551,18.499980413173574
0.0028068694227979013,28.749660637810447,19.839194425311863
0.0028168694227979013,28.799301242535392,21.207314270643909
0.0028268694227979014,28.850208205988096,22.602753676139294
0.0028368694227979014,28.902337318819114,24.023970190532044
0.0028468694227979014,28.955645123167379,25.469464432739489
0.0028568694227979015,29.010088906358632,26.937779346453947
0.0028668694227979015,29.065626694353764,28.427499461170761
0.0028768694227979015,29.1222172449731,29.937250159889587
0.0028868694227979015,29.179820040921612,31.465696953700412
0.0028968694227979016,29.238395282639004,33.011544763441343
0.0029068694227979016,29.29790388099768,34.573537208591567
0.0029168694227979016,29.358307449870463,36.150455903540617
0.0029268694227979016,29.419568298589169,37.74111976135358
0.0029368694227979017,29.481649424314018,39.344384305131172
0.0029468694227979017,29.544514504332994,40.959140987044243
0.0029568694227979017,29.608127888309443,42.584316515103616
0.0029668694227979017,29.672454590495214,44.218872187708065
0.0029768694227979018,29.737460281925877,45.861803235996703
0.0029868694227979018,29.803111282613663,47.512138174015647
0.0029968694227979018,29.869374553753094,49.168938156693763
0.0030068694227979018,29.936217689953263,50.83129634560769
0.0030168694227979019,30.003608911510277,52.498337282502618
0.0030268694227979019,30.07151705673234,54.169216270522327
0.0030368694227979019,30.139911574329428,55.843118763089862
0.003046869422797902,30.208762515878711,57.519259760368492
0.003056869422797902,30.278040528376248,59.196883213221838
0.003066869422797902,30.347716846884737,60.875261434582086
0.003076869422797902,30.417763287286462,62.553694518125397
0.0030868694227979021,30.488152239149962,64.231509764144946
0.0030968694227979021,30.558856658718209,65.908061112504129
0.0031068694227979021,30.629850062025522,67.582728582544519
0.0031168694227979021,30.701106518149704,69.254917719816504
0.0031268694227979022,30.772600642605351,70.924059049494389
0.0031368694227979022,30.844307590883503,72.589607536332281
0.0031468694227979022,30.916203052142304,74.251042051011567
0.0031568694227979022,30.988263243052554,75.907864842727406
0.0031668694227979023,31.060464901801481,77.559601017857375
0.0031768694227979023,31.132785282257277,79.205798024552578
0.0031868694227979023,31.205202148296415,80.846025143089676
0.0031968694227979023,31.277693768294945,82.479872981820066
0.0032068694227979024,31.350238909784405,84.10695297855203
0.0032168694227979024,31.422816834272108,85.726896907201038
0.0032268694227979024,31.495407292225131,87.339356389544392
0.0032368694227979024,31.567990518216273,88.944002411916998
0.0032468694227979025,31.640547226229856,90.540524846687376
0.0032568694227979025,31.713058605124328,92.128631978355628
0.0032668694227979025,31.785506314247847,93.708050034118031
0.0032768694227979026,31.857872479202555,95.278522718747794
0.0032868694227979026,31.930139687752128,96.839810753645409
0.0032968694227979026,32.002290985866836,98.391691419918544
0.0033068694227979026,32.074309873899317,99.933958105356979
0.0033168694227979027,32.146180302883714,101.46641985517559
0.0033268694227979027,32.217886670950058,102.98890092640593
0.0033368694227979027,32.289413819845038,104.50124034582562
0.0033468694227979027,32.360747031549693,106.00329147132345
0.0033568694227979028,32.431872024983853,107.49492155660887
0.0033668694227979028,32.502774952786474,108.97601131918395
0.0033768694227979028,32.573442398160537,110.44645451150758
0.0033868694227979028,32.643861371770484,111.90615749529356
0.0033968694227979029,32.714019308679681,113.35503881889591
0.0034068694227979029,32.78390406531495,114.79302879774795
0.0034168694227979029,32.853503916444765,116.2200690978347
0.0034268694227979029,32.922807552157238,117.63611232219174
0.003436869422797903,32.991804074823925,119.04112160043765
0.003446869422797903,33.060482996034963,120.43507018136171
0.003456869422797903,33.128834233491148,121.81794102860215
0.0034668694227979031,33.196848107838136,123.18972641946581
0.0034768694227979031,33.264515339428399,124.55042754695414
0.0034868694227979031,33.331827044996025,125.90005412507507
0.0034968694227979031,33.39877473423018,127.23862399753509
0.0035068694227979032,33.465350306232821,128.56616274992018
0.0035168694227979032,33.531546045846966,129.88270332548794
0.0035268694227979032,33.597354619841845,131.18828564470738
0.0035368694227979032,33.66276907294214,132.48295622869588
0.0035468694227979033,33.727782823688798,133.76676782671547
0.0035568694227979033,33.792389660119881,135.03977904790267
0.0035668694227979033,33.856583735260408,136.30205399741726
0.0035768694227979033,33.920359562411278,137.55366191720637
0.0035868694227979034,33.983712010228132,138.79467683158919
0.0035968694227979034,34.046636297581998,140.02517719787613
0.0036068694227979034,34.109127988194935,141.24524556224486
0.0036168694227979034,34.171182985044751,142.4549682211007
0.0036268694227979035,34.232797524534192,143.6544348881549
0.0036368694227979035,34.293968170421444,144.84373836745766
0.0036468694227979035,34.354691807509845,146.02297423262638
0.0036568694227979036,34.41496563509623,147.19224051250944
0.0036668694227979036,34.474787160178785,148.35163738352733
0.0036768694227979036,34.534154190426364,149.50126686893003
0.0036868694227979036,34.593064826913171,150.641232545208
0.0036968694227979037,34.651517456623566,151.7716392558884
0.0037068694227979037,34.709510744733414,152.89259283294382
0.0037168694227979037,34.767043626675999,154.00419982603287
0.0037268694227979037,34.824115300001253,155.10656723978374
0.0037368694227979038,34.880725216038954,156.1998022793222
0.0037468694227979038,34.936873071377519,157.28401210423425
0.0037568694227979038,34.99255879917115,158.35930359114161
0.0037668694227979038,35.047782560289242,159.42578310505479
0.0037768694227979039,35.102544734323189,160.48355627965375
0.0037868694227979039,35.156845910466288,161.53272780663144
0.0037968694227979039,35.210686878283632,162.57340123421793
0.0038068694227979039,35.264068618389452,163.6056787749873
0.003816869422797904,35.316992293049992,164.62966112303019
0.003826869422797904,35.369459236730712,165.64544728055725
0.003836869422797904,35.421470946606796,166.65313439397991
0.003846869422797904,35.473029073056495,167.65281759949485
0.0038568694227979041,35.524135410156759,168.64458987818034
0.0038668694227979041,35.574791886201005,169.62854192059154
0.0038768694227979041,35.625000554258577,170.60476200082303
0.0038868694227979042,35.674763582795414,171.57333585998708
0.0038968694227979042,35.72408324637523,172.53434659903698
0.0039068694227979038,35.772961916460048,173.48787458084482
0.0039168694227979034,35.821402052328665,174.43399734142585
0.003926869422797903,35.869406192130718,175.37278951018152
0.0039368694227979025,35.916976944093896,176.30432273901786
0.0039468694227979021,35.964116977900602,177.22866564017693
0.0039568694227979017,36.010829016249929,178.14588373260415
0.0039668694227979013,36.057115826619842,179.05603939665886
0.0039768694227979009,36.102980213243448,179.95919183696063
0.0039868694227979005,36.148425009312426,180.8553970531504
0.0039968694227979001,36.193453069419483,181.74470781833364
0.0040068694227978997,36.238067262250915,182.62717366496062
0.0040168694227978993,36.282270463538836,183.50284087788859
